* /home/elavarasanp002/esim-workspace/universal_trig_flipflop/universal_trig_flipflop.cir
Transient Analysis  Thu Mar 10 13:35:05  2022
--------------------------------------------------------------------------------
Index   time            din             gnd             integrat        
--------------------------------------------------------------------------------
0	0.000000e+00	0.000000e+00	0.000000e+00	4.987351e-54	
1	1.000000e-07	0.000000e+00	0.000000e+00	4.999492e-02	
2	1.012130e-07	0.000000e+00	0.000000e+00	5.060133e-02	
3	1.036389e-07	0.000000e+00	0.000000e+00	5.181417e-02	
4	1.084907e-07	0.000000e+00	0.000000e+00	5.423983e-02	
5	1.181944e-07	0.000000e+00	0.000000e+00	5.909112e-02	
6	1.376018e-07	0.000000e+00	0.000000e+00	6.879355e-02	
7	1.764166e-07	0.000000e+00	0.000000e+00	8.819785e-02	
8	2.540461e-07	0.000000e+00	0.000000e+00	1.270042e-01	
9	4.093051e-07	0.000000e+00	0.000000e+00	2.046078e-01	
10	7.198232e-07	0.000000e+00	0.000000e+00	3.597776e-01	
11	1.060942e-06	0.000000e+00	0.000000e+00	5.301699e-01	
12	1.403541e-06	0.000000e+00	0.000000e+00	7.012091e-01	
13	1.881580e-06	0.000000e+00	0.000000e+00	9.396867e-01	
14	2.430133e-06	0.000000e+00	0.000000e+00	1.213075e+00	
15	3.527240e-06	0.000000e+00	0.000000e+00	1.758977e+00	
16	5.721452e-06	0.000000e+00	0.000000e+00	2.847254e+00	
17	1.000000e-05	0.000000e+00	0.000000e+00	4.955758e+00	
18	1.020384e-05	0.000000e+00	0.000000e+00	4.953866e+00	
19	1.061151e-05	0.000000e+00	0.000000e+00	4.950083e+00	
20	1.142686e-05	0.000000e+00	0.000000e+00	4.942528e+00	
21	1.301399e-05	0.000000e+00	0.000000e+00	4.927855e+00	
22	1.618825e-05	0.000000e+00	0.000000e+00	4.898649e+00	
23	2.253678e-05	0.000000e+00	0.000000e+00	4.840786e+00	
24	3.253678e-05	0.000000e+00	0.000000e+00	4.751110e+00	
25	4.253678e-05	0.000000e+00	0.000000e+00	4.663200e+00	
26	5.253678e-05	0.000000e+00	0.000000e+00	4.577021e+00	
27	6.253678e-05	0.000000e+00	0.000000e+00	4.492539e+00	
28	7.253678e-05	0.000000e+00	0.000000e+00	4.409721e+00	
29	8.253678e-05	0.000000e+00	0.000000e+00	4.328532e+00	
30	9.253678e-05	0.000000e+00	0.000000e+00	4.248942e+00	
31	1.025368e-04	0.000000e+00	0.000000e+00	4.170919e+00	
32	1.125368e-04	0.000000e+00	0.000000e+00	4.094431e+00	
33	1.225368e-04	0.000000e+00	0.000000e+00	4.019448e+00	
34	1.325368e-04	0.000000e+00	0.000000e+00	3.945940e+00	
35	1.425368e-04	0.000000e+00	0.000000e+00	3.873878e+00	
36	1.525368e-04	0.000000e+00	0.000000e+00	3.803233e+00	
37	1.625368e-04	0.000000e+00	0.000000e+00	3.733978e+00	
38	1.725368e-04	0.000000e+00	0.000000e+00	3.666085e+00	
39	1.825368e-04	0.000000e+00	0.000000e+00	3.599526e+00	
40	1.925368e-04	0.000000e+00	0.000000e+00	3.534276e+00	
41	2.025368e-04	0.000000e+00	0.000000e+00	3.470308e+00	
42	2.125368e-04	0.000000e+00	0.000000e+00	3.407597e+00	
43	2.225368e-04	0.000000e+00	0.000000e+00	3.346118e+00	
44	2.325368e-04	0.000000e+00	0.000000e+00	3.285847e+00	
45	2.425368e-04	0.000000e+00	0.000000e+00	3.226760e+00	
46	2.525368e-04	0.000000e+00	0.000000e+00	3.168833e+00	
47	2.625368e-04	0.000000e+00	0.000000e+00	3.112043e+00	
48	2.725368e-04	0.000000e+00	0.000000e+00	3.056369e+00	
49	2.825368e-04	0.000000e+00	0.000000e+00	3.001787e+00	
50	2.925368e-04	0.000000e+00	0.000000e+00	2.948276e+00	
51	3.000000e-04	0.000000e+00	0.000000e+00	2.909025e+00	
52	3.010000e-04	5.000000e-01	0.000000e+00	2.903815e+00	
53	3.030000e-04	1.500000e+00	0.000000e+00	2.893416e+00	
54	3.030020e-04	1.501000e+00	0.000000e+00	2.893406e+00	

Index   time            din             gnd             integrat        
--------------------------------------------------------------------------------
55	3.030021e-04	1.501050e+00	0.000000e+00	2.893405e+00	
56	3.030023e-04	1.501150e+00	0.000000e+00	2.893404e+00	
57	3.030027e-04	1.501350e+00	0.000000e+00	2.893402e+00	
58	3.030030e-04	1.501500e+00	0.000000e+00	2.893401e+00	
59	3.030031e-04	1.501540e+00	0.000000e+00	2.893400e+00	
60	3.030032e-04	1.501620e+00	0.000000e+00	2.893399e+00	
61	3.030036e-04	1.501780e+00	0.000000e+00	2.893398e+00	
62	3.030042e-04	1.502100e+00	0.000000e+00	2.893394e+00	
63	3.030055e-04	1.502740e+00	0.000000e+00	2.893388e+00	
64	3.030080e-04	1.504020e+00	0.000000e+00	2.893374e+00	
65	3.030132e-04	1.506580e+00	0.000000e+00	2.893348e+00	
66	3.030234e-04	1.511700e+00	0.000000e+00	2.893295e+00	
67	3.030439e-04	1.521940e+00	0.000000e+00	2.893188e+00	
68	3.030848e-04	1.542420e+00	0.000000e+00	2.892976e+00	
69	3.031668e-04	1.583380e+00	0.000000e+00	2.892551e+00	
70	3.033306e-04	1.665300e+00	0.000000e+00	2.891701e+00	
71	3.036583e-04	1.829140e+00	0.000000e+00	2.890002e+00	
72	3.043136e-04	2.156820e+00	0.000000e+00	2.886608e+00	
73	3.056244e-04	2.812180e+00	0.000000e+00	2.879833e+00	
74	3.082458e-04	4.122900e+00	0.000000e+00	2.866335e+00	
75	3.100000e-04	5.000000e+00	0.000000e+00	2.857341e+00	
76	3.105243e-04	5.000000e+00	0.000000e+00	2.854661e+00	
77	3.115729e-04	5.000000e+00	0.000000e+00	2.849305e+00	
78	3.136700e-04	5.000000e+00	0.000000e+00	2.838628e+00	
79	3.178643e-04	5.000000e+00	0.000000e+00	2.817405e+00	
80	3.262529e-04	5.000000e+00	0.000000e+00	2.775485e+00	
81	3.362529e-04	5.000000e+00	0.000000e+00	2.726412e+00	
82	3.462529e-04	5.000000e+00	0.000000e+00	2.678302e+00	
83	3.562529e-04	5.000000e+00	0.000000e+00	2.631134e+00	
84	3.662529e-04	5.000000e+00	0.000000e+00	2.584891e+00	
85	3.762529e-04	5.000000e+00	0.000000e+00	2.539553e+00	
86	3.862529e-04	5.000000e+00	0.000000e+00	2.495103e+00	
87	3.962529e-04	5.000000e+00	0.000000e+00	2.451524e+00	
88	4.062529e-04	5.000000e+00	0.000000e+00	2.408797e+00	
89	4.162529e-04	5.000000e+00	0.000000e+00	2.366907e+00	
90	4.262529e-04	5.000000e+00	0.000000e+00	2.325836e+00	
91	4.362529e-04	5.000000e+00	0.000000e+00	2.285569e+00	
92	4.462529e-04	5.000000e+00	0.000000e+00	2.246089e+00	
93	4.562529e-04	5.000000e+00	0.000000e+00	2.207380e+00	
94	4.662529e-04	5.000000e+00	0.000000e+00	2.169428e+00	
95	4.762529e-04	5.000000e+00	0.000000e+00	2.132218e+00	
96	4.862529e-04	5.000000e+00	0.000000e+00	2.095734e+00	
97	4.962529e-04	5.000000e+00	0.000000e+00	2.059963e+00	
98	5.062529e-04	5.000000e+00	0.000000e+00	2.024890e+00	
99	5.162529e-04	5.000000e+00	0.000000e+00	1.990501e+00	
100	5.262529e-04	5.000000e+00	0.000000e+00	1.956783e+00	
101	5.362529e-04	5.000000e+00	0.000000e+00	1.923722e+00	
102	5.462529e-04	5.000000e+00	0.000000e+00	1.891306e+00	
103	5.562529e-04	5.000000e+00	0.000000e+00	1.859522e+00	
104	5.662529e-04	5.000000e+00	0.000000e+00	1.828356e+00	
105	5.762529e-04	5.000000e+00	0.000000e+00	1.797798e+00	
106	5.862529e-04	5.000000e+00	0.000000e+00	1.767834e+00	
107	5.962529e-04	5.000000e+00	0.000000e+00	1.738453e+00	
108	6.062529e-04	5.000000e+00	0.000000e+00	1.709643e+00	
109	6.162529e-04	5.000000e+00	0.000000e+00	1.681394e+00	
110	6.262529e-04	5.000000e+00	0.000000e+00	1.653693e+00	
111	6.362529e-04	5.000000e+00	0.000000e+00	1.626530e+00	
112	6.462529e-04	5.000000e+00	0.000000e+00	1.599895e+00	

Index   time            din             gnd             integrat        
--------------------------------------------------------------------------------
113	6.562529e-04	5.000000e+00	0.000000e+00	1.573777e+00	
114	6.662529e-04	5.000000e+00	0.000000e+00	1.548165e+00	
115	6.762529e-04	5.000000e+00	0.000000e+00	1.523049e+00	
116	6.862529e-04	5.000000e+00	0.000000e+00	1.498420e+00	
117	6.962529e-04	5.000000e+00	0.000000e+00	1.474268e+00	
118	7.062529e-04	5.000000e+00	0.000000e+00	1.450584e+00	
119	7.162529e-04	5.000000e+00	0.000000e+00	1.427358e+00	
120	7.262529e-04	5.000000e+00	0.000000e+00	1.404580e+00	
121	7.362529e-04	5.000000e+00	0.000000e+00	1.382243e+00	
122	7.462529e-04	5.000000e+00	0.000000e+00	1.360337e+00	
123	7.562529e-04	5.000000e+00	0.000000e+00	1.338854e+00	
124	7.662529e-04	5.000000e+00	0.000000e+00	1.317785e+00	
125	7.762529e-04	5.000000e+00	0.000000e+00	1.297123e+00	
126	7.862529e-04	5.000000e+00	0.000000e+00	1.276858e+00	
127	7.962529e-04	5.000000e+00	0.000000e+00	1.256983e+00	
128	8.062529e-04	5.000000e+00	0.000000e+00	1.237491e+00	
129	8.162529e-04	5.000000e+00	0.000000e+00	1.218373e+00	
130	8.262529e-04	5.000000e+00	0.000000e+00	1.199622e+00	
131	8.362529e-04	5.000000e+00	0.000000e+00	1.181232e+00	
132	8.462529e-04	5.000000e+00	0.000000e+00	1.163193e+00	
133	8.562529e-04	5.000000e+00	0.000000e+00	1.145501e+00	
134	8.662529e-04	5.000000e+00	0.000000e+00	1.128147e+00	
135	8.762529e-04	5.000000e+00	0.000000e+00	1.111125e+00	
136	8.862529e-04	5.000000e+00	0.000000e+00	1.094428e+00	
137	8.962529e-04	5.000000e+00	0.000000e+00	1.078050e+00	
138	9.062529e-04	5.000000e+00	0.000000e+00	1.061985e+00	
139	9.162529e-04	5.000000e+00	0.000000e+00	1.046225e+00	
140	9.262529e-04	5.000000e+00	0.000000e+00	1.030766e+00	
141	9.362529e-04	5.000000e+00	0.000000e+00	1.015600e+00	
142	9.462529e-04	5.000000e+00	0.000000e+00	1.000723e+00	
143	9.562529e-04	5.000000e+00	0.000000e+00	9.861275e-01	
144	9.662529e-04	5.000000e+00	0.000000e+00	9.718089e-01	
145	9.762529e-04	5.000000e+00	0.000000e+00	9.577613e-01	
146	9.862529e-04	5.000000e+00	0.000000e+00	9.439793e-01	
147	9.962529e-04	5.000000e+00	0.000000e+00	9.304576e-01	
148	1.006253e-03	5.000000e+00	0.000000e+00	9.171908e-01	
149	1.016253e-03	5.000000e+00	0.000000e+00	9.041738e-01	
150	1.026253e-03	5.000000e+00	0.000000e+00	8.914016e-01	
151	1.036253e-03	5.000000e+00	0.000000e+00	8.788692e-01	
152	1.046253e-03	5.000000e+00	0.000000e+00	8.665718e-01	
153	1.056253e-03	5.000000e+00	0.000000e+00	8.545046e-01	
154	1.066253e-03	5.000000e+00	0.000000e+00	8.426630e-01	
155	1.076253e-03	5.000000e+00	0.000000e+00	8.310422e-01	
156	1.086253e-03	5.000000e+00	0.000000e+00	8.196380e-01	
157	1.096253e-03	5.000000e+00	0.000000e+00	8.084458e-01	
158	1.106253e-03	5.000000e+00	0.000000e+00	7.974613e-01	
159	1.116253e-03	5.000000e+00	0.000000e+00	7.866802e-01	
160	1.126253e-03	5.000000e+00	0.000000e+00	7.760985e-01	
161	1.136253e-03	5.000000e+00	0.000000e+00	7.657120e-01	
162	1.146253e-03	5.000000e+00	0.000000e+00	7.555168e-01	
163	1.156253e-03	5.000000e+00	0.000000e+00	7.455087e-01	
164	1.166253e-03	5.000000e+00	0.000000e+00	7.356842e-01	
165	1.176253e-03	5.000000e+00	0.000000e+00	7.260392e-01	
166	1.186253e-03	5.000000e+00	0.000000e+00	7.165701e-01	
167	1.196253e-03	5.000000e+00	0.000000e+00	7.072733e-01	
168	1.206253e-03	5.000000e+00	0.000000e+00	6.981452e-01	
169	1.216253e-03	5.000000e+00	0.000000e+00	6.891822e-01	
170	1.226253e-03	5.000000e+00	0.000000e+00	6.803809e-01	

Index   time            din             gnd             integrat        
--------------------------------------------------------------------------------
171	1.236253e-03	5.000000e+00	0.000000e+00	6.717379e-01	
172	1.246253e-03	5.000000e+00	0.000000e+00	6.632499e-01	
173	1.256253e-03	5.000000e+00	0.000000e+00	6.549137e-01	
174	1.266253e-03	5.000000e+00	0.000000e+00	6.467259e-01	
175	1.276253e-03	5.000000e+00	0.000000e+00	6.386834e-01	
176	1.286253e-03	5.000000e+00	0.000000e+00	6.307832e-01	
177	1.296253e-03	5.000000e+00	0.000000e+00	6.230223e-01	
178	1.306253e-03	5.000000e+00	0.000000e+00	6.153975e-01	
179	1.310000e-03	5.000000e+00	0.000000e+00	6.125750e-01	
180	1.311000e-03	4.500000e+00	0.000000e+00	6.118256e-01	
181	1.313000e-03	3.500000e+00	0.000000e+00	6.103293e-01	
182	1.317000e-03	1.500000e+00	0.000000e+00	6.073525e-01	
183	1.320000e-03	0.000000e+00	0.000000e+00	6.051336e-01	
184	1.320800e-03	0.000000e+00	0.000000e+00	6.045442e-01	
185	1.322400e-03	0.000000e+00	0.000000e+00	6.033672e-01	
186	1.325600e-03	0.000000e+00	0.000000e+00	6.010231e-01	
187	1.332000e-03	0.000000e+00	0.000000e+00	5.963739e-01	
188	1.342000e-03	0.000000e+00	0.000000e+00	5.892124e-01	
189	1.352000e-03	0.000000e+00	0.000000e+00	5.821741e-01	
190	1.362000e-03	0.000000e+00	0.000000e+00	5.752562e-01	
191	1.372000e-03	0.000000e+00	0.000000e+00	5.684562e-01	
192	1.382000e-03	0.000000e+00	0.000000e+00	5.617714e-01	
193	1.392000e-03	0.000000e+00	0.000000e+00	5.551992e-01	
194	1.402000e-03	0.000000e+00	0.000000e+00	5.487372e-01	
195	1.412000e-03	0.000000e+00	0.000000e+00	5.423827e-01	
196	1.422000e-03	0.000000e+00	0.000000e+00	5.361334e-01	
197	1.432000e-03	0.000000e+00	0.000000e+00	5.299868e-01	
198	1.442000e-03	0.000000e+00	0.000000e+00	5.239406e-01	
199	1.452000e-03	0.000000e+00	0.000000e+00	5.179925e-01	
200	1.462000e-03	0.000000e+00	0.000000e+00	5.121402e-01	
201	1.472000e-03	0.000000e+00	0.000000e+00	5.063815e-01	
202	1.482000e-03	0.000000e+00	0.000000e+00	5.007141e-01	
203	1.492000e-03	0.000000e+00	0.000000e+00	4.951358e-01	
204	1.502000e-03	0.000000e+00	0.000000e+00	4.896447e-01	
205	1.512000e-03	0.000000e+00	0.000000e+00	4.842385e-01	
206	1.522000e-03	0.000000e+00	0.000000e+00	4.789152e-01	
207	1.532000e-03	0.000000e+00	0.000000e+00	4.736728e-01	
208	1.542000e-03	0.000000e+00	0.000000e+00	4.685094e-01	
209	1.552000e-03	0.000000e+00	0.000000e+00	4.634230e-01	
210	1.562000e-03	0.000000e+00	0.000000e+00	4.584117e-01	
211	1.572000e-03	0.000000e+00	0.000000e+00	4.534737e-01	
212	1.582000e-03	0.000000e+00	0.000000e+00	4.486072e-01	
213	1.592000e-03	0.000000e+00	0.000000e+00	4.438104e-01	
214	1.602000e-03	0.000000e+00	0.000000e+00	4.390816e-01	
215	1.612000e-03	0.000000e+00	0.000000e+00	4.344191e-01	
216	1.622000e-03	0.000000e+00	0.000000e+00	4.298213e-01	
217	1.632000e-03	0.000000e+00	0.000000e+00	4.252865e-01	
218	1.642000e-03	0.000000e+00	0.000000e+00	4.208133e-01	
219	1.652000e-03	0.000000e+00	0.000000e+00	4.164001e-01	
220	1.662000e-03	0.000000e+00	0.000000e+00	4.120455e-01	
221	1.672000e-03	0.000000e+00	0.000000e+00	4.077480e-01	
222	1.682000e-03	0.000000e+00	0.000000e+00	4.035063e-01	
223	1.692000e-03	0.000000e+00	0.000000e+00	3.993190e-01	
224	1.702000e-03	0.000000e+00	0.000000e+00	3.951850e-01	
225	1.712000e-03	0.000000e+00	0.000000e+00	3.911028e-01	
226	1.722000e-03	0.000000e+00	0.000000e+00	3.870714e-01	
227	1.732000e-03	0.000000e+00	0.000000e+00	3.830897e-01	
228	1.742000e-03	0.000000e+00	0.000000e+00	3.791564e-01	

Index   time            din             gnd             integrat        
--------------------------------------------------------------------------------
229	1.752000e-03	0.000000e+00	0.000000e+00	3.752705e-01	
230	1.762000e-03	0.000000e+00	0.000000e+00	3.714311e-01	
231	1.772000e-03	0.000000e+00	0.000000e+00	3.676371e-01	
232	1.782000e-03	0.000000e+00	0.000000e+00	3.638877e-01	
233	1.792000e-03	0.000000e+00	0.000000e+00	3.601818e-01	
234	1.802000e-03	0.000000e+00	0.000000e+00	3.565186e-01	
235	1.812000e-03	0.000000e+00	0.000000e+00	3.528974e-01	
236	1.822000e-03	0.000000e+00	0.000000e+00	3.493172e-01	
237	1.832000e-03	0.000000e+00	0.000000e+00	3.457774e-01	
238	1.842000e-03	0.000000e+00	0.000000e+00	3.422772e-01	
239	1.852000e-03	0.000000e+00	0.000000e+00	3.388159e-01	
240	1.862000e-03	0.000000e+00	0.000000e+00	3.353929e-01	
241	1.872000e-03	0.000000e+00	0.000000e+00	3.320074e-01	
242	1.882000e-03	0.000000e+00	0.000000e+00	3.286588e-01	
243	1.892000e-03	0.000000e+00	0.000000e+00	3.253466e-01	
244	1.902000e-03	0.000000e+00	0.000000e+00	3.220702e-01	
245	1.912000e-03	0.000000e+00	0.000000e+00	3.188290e-01	
246	1.922000e-03	0.000000e+00	0.000000e+00	3.156225e-01	
247	1.932000e-03	0.000000e+00	0.000000e+00	3.124501e-01	
248	1.942000e-03	0.000000e+00	0.000000e+00	3.093113e-01	
249	1.952000e-03	0.000000e+00	0.000000e+00	3.062058e-01	
250	1.962000e-03	0.000000e+00	0.000000e+00	3.031330e-01	
251	1.972000e-03	0.000000e+00	0.000000e+00	3.000924e-01	
252	1.982000e-03	0.000000e+00	0.000000e+00	2.970836e-01	
253	1.992000e-03	0.000000e+00	0.000000e+00	2.941062e-01	
254	2.002000e-03	0.000000e+00	0.000000e+00	2.911598e-01	
255	2.010000e-03	0.000000e+00	0.000000e+00	2.888247e-01	
256	2.010018e-03	0.000000e+00	0.000000e+00	2.798034e-01	
257	2.010054e-03	0.000000e+00	0.000000e+00	2.617613e-01	
258	2.010126e-03	0.000000e+00	0.000000e+00	2.256789e-01	
259	2.010211e-03	0.000000e+00	0.000000e+00	1.831857e-01	
260	2.010381e-03	0.000000e+00	0.000000e+00	9.821004e-02	
261	2.010684e-03	0.000000e+00	0.000000e+00	-5.31605e-02	
262	2.011289e-03	0.000000e+00	0.000000e+00	-3.55764e-01	
263	2.012188e-03	0.000000e+00	0.000000e+00	-8.04630e-01	
264	2.012771e-03	0.000000e+00	0.000000e+00	-1.09547e+00	
265	2.013330e-03	0.000000e+00	0.000000e+00	-1.37430e+00	
266	2.014163e-03	0.000000e+00	0.000000e+00	-1.78952e+00	
267	2.015023e-03	0.000000e+00	0.000000e+00	-2.21794e+00	
268	2.016744e-03	0.000000e+00	0.000000e+00	-3.07368e+00	
269	2.019852e-03	0.000000e+00	0.000000e+00	-4.61602e+00	
270	2.020000e-03	0.000000e+00	0.000000e+00	-4.68913e+00	
271	2.020025e-03	0.000000e+00	0.000000e+00	-4.68901e+00	
272	2.020074e-03	0.000000e+00	0.000000e+00	-4.68878e+00	
273	2.020173e-03	0.000000e+00	0.000000e+00	-4.68832e+00	
274	2.020370e-03	0.000000e+00	0.000000e+00	-4.68739e+00	
275	2.020766e-03	0.000000e+00	0.000000e+00	-4.68554e+00	
276	2.021556e-03	0.000000e+00	0.000000e+00	-4.68184e+00	
277	2.023136e-03	0.000000e+00	0.000000e+00	-4.67444e+00	
278	2.026297e-03	0.000000e+00	0.000000e+00	-4.65969e+00	
279	2.032618e-03	0.000000e+00	0.000000e+00	-4.63033e+00	
280	2.042618e-03	0.000000e+00	0.000000e+00	-4.58426e+00	
281	2.052618e-03	0.000000e+00	0.000000e+00	-4.53864e+00	
282	2.062618e-03	0.000000e+00	0.000000e+00	-4.49348e+00	
283	2.072618e-03	0.000000e+00	0.000000e+00	-4.44877e+00	
284	2.082618e-03	0.000000e+00	0.000000e+00	-4.40450e+00	
285	2.092618e-03	0.000000e+00	0.000000e+00	-4.36068e+00	
286	2.102618e-03	0.000000e+00	0.000000e+00	-4.31729e+00	

Index   time            din             gnd             integrat        
--------------------------------------------------------------------------------
287	2.112618e-03	0.000000e+00	0.000000e+00	-4.27433e+00	
288	2.122618e-03	0.000000e+00	0.000000e+00	-4.23180e+00	
289	2.132618e-03	0.000000e+00	0.000000e+00	-4.18969e+00	
290	2.142618e-03	0.000000e+00	0.000000e+00	-4.14800e+00	
291	2.152618e-03	0.000000e+00	0.000000e+00	-4.10673e+00	
292	2.162618e-03	0.000000e+00	0.000000e+00	-4.06587e+00	
293	2.172618e-03	0.000000e+00	0.000000e+00	-4.02541e+00	
294	2.182618e-03	0.000000e+00	0.000000e+00	-3.98536e+00	
295	2.192618e-03	0.000000e+00	0.000000e+00	-3.94570e+00	
296	2.202618e-03	0.000000e+00	0.000000e+00	-3.90644e+00	
297	2.212618e-03	0.000000e+00	0.000000e+00	-3.86757e+00	
298	2.222618e-03	0.000000e+00	0.000000e+00	-3.82909e+00	
299	2.232618e-03	0.000000e+00	0.000000e+00	-3.79099e+00	
300	2.242618e-03	0.000000e+00	0.000000e+00	-3.75327e+00	
301	2.252618e-03	0.000000e+00	0.000000e+00	-3.71592e+00	
302	2.262618e-03	0.000000e+00	0.000000e+00	-3.67895e+00	
303	2.272618e-03	0.000000e+00	0.000000e+00	-3.64234e+00	
304	2.282618e-03	0.000000e+00	0.000000e+00	-3.60610e+00	
305	2.292618e-03	0.000000e+00	0.000000e+00	-3.57022e+00	
306	2.300000e-03	0.000000e+00	0.000000e+00	-3.54396e+00	
307	2.301000e-03	5.000000e-01	0.000000e+00	-3.54042e+00	
308	2.303000e-03	1.500000e+00	0.000000e+00	-3.53334e+00	
309	2.307000e-03	3.500000e+00	0.000000e+00	-3.51924e+00	
310	2.310000e-03	5.000000e+00	0.000000e+00	-3.50870e+00	
311	2.310800e-03	5.000000e+00	0.000000e+00	-3.50589e+00	
312	2.312400e-03	5.000000e+00	0.000000e+00	-3.50029e+00	
313	2.315600e-03	5.000000e+00	0.000000e+00	-3.48910e+00	
314	2.322000e-03	5.000000e+00	0.000000e+00	-3.46685e+00	
315	2.332000e-03	5.000000e+00	0.000000e+00	-3.43235e+00	
316	2.342000e-03	5.000000e+00	0.000000e+00	-3.39820e+00	
317	2.352000e-03	5.000000e+00	0.000000e+00	-3.36438e+00	
318	2.362000e-03	5.000000e+00	0.000000e+00	-3.33091e+00	
319	2.372000e-03	5.000000e+00	0.000000e+00	-3.29776e+00	
320	2.382000e-03	5.000000e+00	0.000000e+00	-3.26495e+00	
321	2.392000e-03	5.000000e+00	0.000000e+00	-3.23246e+00	
322	2.402000e-03	5.000000e+00	0.000000e+00	-3.20030e+00	
323	2.412000e-03	5.000000e+00	0.000000e+00	-3.16846e+00	
324	2.422000e-03	5.000000e+00	0.000000e+00	-3.13693e+00	
325	2.432000e-03	5.000000e+00	0.000000e+00	-3.10572e+00	
326	2.442000e-03	5.000000e+00	0.000000e+00	-3.07481e+00	
327	2.452000e-03	5.000000e+00	0.000000e+00	-3.04422e+00	
328	2.462000e-03	5.000000e+00	0.000000e+00	-3.01393e+00	
329	2.472000e-03	5.000000e+00	0.000000e+00	-2.98394e+00	
330	2.482000e-03	5.000000e+00	0.000000e+00	-2.95425e+00	
331	2.492000e-03	5.000000e+00	0.000000e+00	-2.92485e+00	
